Sample in Buffer,Sample in Window,TRIGGER,main_level/cc_block_inst/Channel_Y_CC_AXI_Master/s_axis_data_tdata[31:0],main_level/cc_block_inst/Channel_X_CC_AXI_Master/s_axis_data_tdata[31:0],main_level/cmd/COMM_READ_CONT_inst/current_state[3:0],main_level/trigger_fft_inst/TRIGGER_DETECT_inst/FFT_index[7:0],main_level/trigger_fft_inst/TRIGGER_DETECT_inst/val_to_compare[15:0],main_level/ADC_Channel_1[9:0],main_level/data_ready,main_level/trigger_fft_inst/fft_m_axis_data_tvalid,main_level/cmd/COMM_READ_CONT_inst/Rx_Ready,main_level/cmd/Timeout,main_level/trigger_fft_inst/TRIGGER_DETECT_inst/Trigger,main_level/cc_block_inst/Channel_X_CC_AXI_Master/s_axis_data_tvalid,main_level/cc_block_inst/Channel_Y_CC_AXI_Master/s_axis_data_tvalid
Radix - UNSIGNED,UNSIGNED,UNSIGNED,HEX,HEX,HEX,UNSIGNED,UNSIGNED,UNSIGNED,HEX,HEX,HEX,HEX,HEX,HEX,HEX
0,0,0,00000200,00000200,0,48,16,4,0,0,0,0,0,0,0
1,1,0,00000200,00000200,0,48,16,4,0,0,0,0,0,0,0
2,2,0,00000200,00000200,0,48,16,4,0,0,0,0,0,0,0
3,3,0,00000200,00000200,0,48,16,4,0,0,0,0,0,0,0
4,4,0,00000200,00000200,0,48,16,4,0,0,0,0,0,0,0
5,5,0,00000200,00000200,0,48,16,4,0,0,0,0,0,0,0
6,6,0,00000200,00000200,0,48,16,4,0,0,0,0,0,0,0
7,7,0,00000200,00000200,0,48,16,4,0,0,0,0,0,0,0
8,8,0,00000200,00000200,0,48,16,4,0,0,0,0,0,0,0
9,9,0,00000200,00000200,0,48,16,4,0,0,0,0,0,0,0
10,10,0,00000200,00000200,0,48,16,4,0,0,0,0,0,0,0
11,11,0,00000200,00000200,0,48,16,4,0,0,0,0,0,0,0
12,12,0,00000200,00000200,0,48,16,4,0,0,0,0,0,0,0
13,13,0,00000200,00000200,0,48,16,4,0,0,0,0,0,0,0
14,14,0,00000200,00000200,0,48,16,4,0,0,0,0,0,0,0
15,15,0,00000200,00000200,0,48,16,4,0,0,0,0,0,0,0
16,16,0,00000200,00000200,0,48,16,4,0,0,0,0,0,0,0
17,17,0,00000200,00000200,0,48,16,4,0,0,0,0,0,0,0
18,18,0,00000200,00000200,0,48,16,4,0,0,0,0,0,0,0
19,19,0,00000200,00000200,0,48,16,4,0,0,0,0,0,0,0
20,20,0,00000200,00000200,0,48,16,4,0,0,0,0,0,0,0
21,21,0,00000200,00000200,0,48,16,4,0,0,0,0,0,0,0
22,22,0,00000200,00000200,0,48,16,4,0,0,0,0,0,0,0
23,23,0,00000200,00000200,0,48,16,654,1,0,0,0,0,0,0
24,24,0,00000200,00000200,0,48,16,654,0,0,0,0,0,0,0
25,25,0,00000200,00000200,0,48,16,654,0,0,0,0,0,0,0
26,26,0,00000200,00000200,0,48,16,654,0,0,0,0,0,0,0
27,27,0,00000200,00000200,0,48,16,654,0,0,0,0,0,0,0
28,28,0,00000200,00000200,0,48,16,654,0,0,0,0,0,0,0
29,29,0,00000200,00000200,0,48,16,654,0,0,0,0,0,0,0
30,30,0,00000200,00000200,0,48,16,654,0,0,0,0,0,0,0
31,31,0,00000200,00000200,0,48,16,654,0,0,0,0,0,0,0
32,32,0,00000200,00000200,0,48,16,654,0,0,0,0,0,0,0
33,33,0,00000200,00000200,0,48,16,654,0,0,0,0,0,0,0
34,34,0,00000200,00000200,0,48,16,654,0,0,0,0,0,0,0
35,35,0,00000200,00000200,0,48,16,654,0,0,0,0,0,0,0
36,36,0,00000200,00000200,0,48,16,654,0,0,0,0,0,0,0
37,37,0,00000200,00000200,0,48,16,654,0,0,0,0,0,0,0
38,38,0,00000200,00000200,0,48,16,654,0,0,0,0,0,0,0
39,39,0,00000200,00000200,0,48,16,654,0,0,0,0,0,0,0
40,40,0,00000200,00000200,0,48,16,654,0,0,0,0,0,0,0
41,41,0,00000200,00000200,0,48,16,654,0,0,0,0,0,0,0
42,42,0,00000200,00000200,0,48,16,654,0,0,0,0,0,0,0
43,43,0,00000200,00000200,0,48,16,654,0,0,0,0,0,0,0
44,44,0,00000200,00000200,0,48,16,654,0,0,0,0,0,0,0
45,45,0,00000200,00000200,0,48,16,654,0,0,0,0,0,0,0
46,46,0,00000200,00000200,0,48,16,654,0,0,0,0,0,0,0
47,47,0,00000200,00000200,0,48,16,654,0,0,0,0,0,0,0
48,48,0,00000200,00000200,0,48,16,654,0,0,0,0,0,0,0
49,49,0,00000200,00000200,0,48,16,654,0,0,0,0,0,0,0
50,50,0,00000200,00000200,0,48,16,654,0,0,0,0,0,0,0
51,51,0,00000200,00000200,0,48,16,654,0,0,0,0,0,0,0
52,52,0,00000200,00000200,0,48,16,654,0,0,0,0,0,0,0
53,53,0,00000200,00000200,0,48,16,654,0,0,0,0,0,0,0
54,54,0,00000200,00000200,0,48,16,654,0,0,0,0,0,0,0
55,55,0,00000200,00000200,0,48,16,654,0,0,0,0,0,0,0
56,56,0,00000200,00000200,0,48,16,654,0,0,0,0,0,0,0
57,57,0,00000200,00000200,0,48,16,654,0,0,0,0,0,0,0
58,58,0,00000200,00000200,0,48,16,654,0,0,0,0,0,0,0
59,59,0,00000200,00000200,0,48,16,654,0,0,0,0,0,0,0
60,60,0,00000200,00000200,0,48,16,654,0,0,0,0,0,0,0
61,61,0,00000200,00000200,0,48,16,654,0,0,0,0,0,0,0
62,62,0,00000200,00000200,0,48,16,654,0,0,0,0,0,0,0
63,63,0,00000200,00000200,0,48,16,654,0,0,0,0,0,0,0
64,64,0,00000200,00000200,0,48,16,654,0,0,0,0,0,0,0
65,65,0,00000200,00000200,0,48,16,654,0,0,0,0,0,0,0
66,66,0,00000200,00000200,0,48,16,654,0,0,0,0,0,0,0
67,67,0,00000200,00000200,0,48,16,654,0,0,0,0,0,0,0
68,68,0,00000200,00000200,0,48,16,654,0,0,0,0,0,0,0
69,69,0,00000200,00000200,0,48,16,654,0,0,0,0,0,0,0
70,70,0,00000200,00000200,0,48,16,654,0,0,0,0,0,0,0
71,71,0,00000200,00000200,0,48,16,654,0,0,0,0,0,0,0
72,72,0,00000200,00000200,0,48,16,654,0,0,0,0,0,0,0
73,73,0,00000200,00000200,0,48,16,654,0,0,0,0,0,0,0
74,74,0,00000200,00000200,0,48,16,654,0,0,0,0,0,0,0
75,75,0,00000200,00000200,0,48,16,654,0,0,0,0,0,0,0
76,76,0,00000200,00000200,0,48,16,654,0,0,0,0,0,0,0
77,77,0,00000200,00000200,0,48,16,654,0,0,0,0,0,0,0
78,78,0,00000200,00000200,0,48,16,654,0,0,0,0,0,0,0
79,79,0,00000200,00000200,0,48,16,654,0,0,0,0,0,0,0
80,80,0,00000200,00000200,0,48,16,654,0,0,0,0,0,0,0
81,81,0,00000200,00000200,0,48,16,654,0,0,0,0,0,0,0
82,82,0,00000200,00000200,0,48,16,654,0,0,0,0,0,0,0
83,83,0,00000200,00000200,0,48,16,654,0,0,0,0,0,0,0
84,84,0,00000200,00000200,0,48,16,654,0,0,0,0,0,0,0
85,85,0,00000200,00000200,0,48,16,654,0,0,0,0,0,0,0
86,86,0,00000200,00000200,0,48,16,654,0,0,0,0,0,0,0
87,87,0,00000200,00000200,0,48,16,654,0,0,0,0,0,0,0
88,88,0,00000200,00000200,0,48,16,654,0,0,0,0,0,0,0
89,89,0,00000200,00000200,0,48,16,654,0,0,0,0,0,0,0
90,90,0,00000200,00000200,0,48,16,654,0,0,0,0,0,0,0
91,91,0,00000200,00000200,0,48,16,654,0,0,0,0,0,0,0
92,92,0,00000200,00000200,0,48,16,654,0,0,0,0,0,0,0
93,93,0,00000200,00000200,0,48,16,654,0,0,0,0,0,0,0
94,94,0,00000200,00000200,0,48,16,654,0,0,0,0,0,0,0
95,95,0,00000200,00000200,0,48,16,654,0,0,0,0,0,0,0
96,96,0,00000200,00000200,0,48,16,654,0,0,0,0,0,0,0
97,97,0,00000200,00000200,0,48,16,654,0,0,0,0,0,0,0
98,98,0,00000200,00000200,0,48,16,654,0,0,0,0,0,0,0
99,99,0,00000200,00000200,0,48,16,654,0,0,0,0,0,0,0
100,100,0,00000200,00000200,0,48,16,654,0,0,0,0,0,0,0
101,101,0,00000200,00000200,0,48,16,654,0,0,0,0,0,0,0
102,102,0,00000200,00000200,0,48,16,654,0,0,0,0,0,0,0
103,103,0,00000200,00000200,0,48,16,654,0,0,0,0,0,0,0
104,104,0,00000200,00000200,0,48,16,654,0,0,0,0,0,0,0
105,105,0,00000200,00000200,0,48,16,654,0,0,0,0,0,0,0
106,106,0,00000200,00000200,0,48,16,654,0,0,0,0,0,0,0
107,107,0,00000200,00000200,0,48,16,654,0,0,0,0,0,0,0
108,108,0,00000200,00000200,0,48,16,654,0,0,0,0,0,0,0
109,109,0,00000200,00000200,0,48,16,654,0,0,0,0,0,0,0
110,110,0,00000200,00000200,0,48,16,654,0,0,0,0,0,0,0
111,111,0,00000200,00000200,0,48,16,654,0,0,0,0,0,0,0
112,112,0,00000200,00000200,0,48,16,654,0,0,0,0,0,0,0
113,113,0,00000200,00000200,0,48,16,654,0,0,0,0,0,0,0
114,114,0,00000200,00000200,0,48,16,654,0,0,0,0,0,0,0
115,115,0,00000200,00000200,0,48,16,654,0,0,0,0,0,0,0
116,116,0,00000200,00000200,0,48,16,654,0,0,0,0,0,0,0
117,117,0,00000200,00000200,0,48,16,654,0,0,0,0,0,0,0
118,118,0,00000200,00000200,0,48,16,654,0,0,0,0,0,0,0
119,119,0,00000200,00000200,0,48,16,654,0,0,0,0,0,0,0
120,120,0,00000200,00000200,0,48,16,654,0,0,0,0,0,0,0
121,121,0,00000200,00000200,0,48,16,654,0,0,0,0,0,0,0
122,122,0,00000200,00000200,0,48,16,654,0,0,0,0,0,0,0
123,123,0,00000200,00000200,0,48,16,654,0,0,0,0,0,0,0
124,124,0,00000200,00000200,0,48,16,654,0,0,0,0,0,0,0
125,125,0,00000200,00000200,0,48,16,654,0,0,0,0,0,0,0
126,126,0,00000200,00000200,0,48,16,654,0,0,0,0,0,0,0
127,127,0,00000200,00000200,0,48,16,654,0,0,0,0,0,0,0
128,128,0,00000200,00000200,0,48,16,654,0,0,0,0,0,0,0
129,129,0,00000200,00000200,0,48,16,654,0,0,0,0,0,0,0
130,130,0,00000200,00000200,0,48,16,654,0,0,0,0,0,0,0
131,131,0,00000200,00000200,0,48,16,654,0,0,0,0,0,0,0
132,132,0,00000200,00000200,0,48,16,654,0,0,0,0,0,0,0
133,133,0,00000200,00000200,0,48,16,654,0,0,0,0,0,0,0
134,134,0,00000200,00000200,0,48,16,654,0,0,0,0,0,0,0
135,135,0,00000200,00000200,0,48,16,654,0,0,0,0,0,0,0
136,136,0,00000200,00000200,0,48,16,654,0,0,0,0,0,0,0
137,137,0,00000200,00000200,0,48,16,654,0,0,0,0,0,0,0
138,138,0,00000200,00000200,0,48,16,654,0,0,0,0,0,0,0
139,139,0,00000200,00000200,0,48,16,654,0,0,0,0,0,0,0
140,140,0,00000200,00000200,0,48,16,654,0,0,0,0,0,0,0
141,141,0,00000200,00000200,0,48,16,654,0,0,0,0,0,0,0
142,142,0,00000200,00000200,0,48,16,654,0,0,0,0,0,0,0
143,143,0,00000200,00000200,0,48,16,654,0,0,0,0,0,0,0
144,144,0,00000200,00000200,0,48,16,654,0,0,0,0,0,0,0
145,145,0,00000200,00000200,0,48,16,654,0,0,0,0,0,0,0
146,146,0,00000200,00000200,0,48,16,654,0,0,0,0,0,0,0
147,147,0,00000200,00000200,0,48,16,654,0,0,0,0,0,0,0
148,148,0,00000200,00000200,0,48,16,654,0,0,0,0,0,0,0
149,149,0,00000200,00000200,0,48,16,654,0,0,0,0,0,0,0
150,150,0,00000200,00000200,0,48,16,654,0,0,0,0,0,0,0
151,151,0,00000200,00000200,0,48,16,654,0,0,0,0,0,0,0
152,152,0,00000200,00000200,0,48,16,654,0,0,0,0,0,0,0
153,153,0,00000200,00000200,0,48,16,654,0,0,0,0,0,0,0
154,154,0,00000200,00000200,0,48,16,654,0,0,0,0,0,0,0
155,155,0,00000200,00000200,0,48,16,654,0,0,0,0,0,0,0
156,156,0,00000200,00000200,0,48,16,654,0,0,0,0,0,0,0
157,157,0,00000200,00000200,0,48,16,654,0,0,0,0,0,0,0
158,158,0,00000200,00000200,0,48,16,654,0,0,0,0,0,0,0
159,159,0,00000200,00000200,0,48,16,654,0,0,0,0,0,0,0
160,160,0,00000200,00000200,0,48,16,654,0,0,0,0,0,0,0
161,161,0,00000200,00000200,0,48,16,654,0,0,0,0,0,0,0
162,162,0,00000200,00000200,0,48,16,654,0,0,0,0,0,0,0
163,163,0,00000200,00000200,0,48,16,654,0,0,0,0,0,0,0
164,164,0,00000200,00000200,0,48,16,654,0,0,0,0,0,0,0
165,165,0,00000200,00000200,0,48,16,654,0,0,0,0,0,0,0
166,166,0,00000200,00000200,0,48,16,654,0,0,0,0,0,0,0
167,167,0,00000200,00000200,0,48,16,654,0,0,0,0,0,0,0
168,168,0,00000200,00000200,0,48,16,654,0,0,0,0,0,0,0
169,169,0,00000200,00000200,0,48,16,654,0,0,0,0,0,0,0
170,170,0,00000200,00000200,0,48,16,654,0,0,0,0,0,0,0
171,171,0,00000200,00000200,0,48,16,654,0,0,0,0,0,0,0
172,172,0,00000200,00000200,0,48,16,654,0,0,0,0,0,0,0
173,173,0,00000200,00000200,0,48,16,654,0,0,0,0,0,0,0
174,174,0,00000200,00000200,0,48,16,654,0,0,0,0,0,0,0
175,175,0,00000200,00000200,0,48,16,654,0,0,0,0,0,0,0
176,176,0,00000200,00000200,0,48,16,654,0,0,0,0,0,0,0
177,177,0,00000200,00000200,0,48,16,654,0,0,0,0,0,0,0
178,178,0,00000200,00000200,0,48,16,654,0,0,0,0,0,0,0
179,179,0,00000200,00000200,0,48,16,654,0,0,0,0,0,0,0
180,180,0,00000200,00000200,0,48,16,654,0,0,0,0,0,0,0
181,181,0,00000200,00000200,0,48,16,654,0,0,0,0,0,0,0
182,182,0,00000200,00000200,0,48,16,654,0,0,0,0,0,0,0
183,183,0,00000200,00000200,0,48,16,654,0,0,0,0,0,0,0
184,184,0,00000200,00000200,0,48,16,654,0,0,0,0,0,0,0
185,185,0,00000200,00000200,0,48,16,654,0,0,0,0,0,0,0
186,186,0,00000200,00000200,0,48,16,654,0,0,0,0,0,0,0
187,187,0,00000200,00000200,0,48,16,654,0,0,0,0,0,0,0
188,188,0,00000200,00000200,0,48,16,654,0,0,0,0,0,0,0
189,189,0,00000200,00000200,0,48,16,654,0,0,0,0,0,0,0
190,190,0,00000200,00000200,0,48,16,654,0,0,0,0,0,0,0
191,191,0,00000200,00000200,0,48,16,654,0,0,0,0,0,0,0
192,192,0,00000200,00000200,0,48,16,654,0,0,0,0,0,0,0
193,193,0,00000200,00000200,0,48,16,654,0,0,0,0,0,0,0
194,194,0,00000200,00000200,0,48,16,654,0,0,0,0,0,0,0
195,195,0,00000200,00000200,0,48,16,654,0,0,0,0,0,0,0
196,196,0,00000200,00000200,0,48,16,654,0,0,0,0,0,0,0
197,197,0,00000200,00000200,0,48,16,654,0,0,0,0,0,0,0
198,198,0,00000200,00000200,0,48,16,654,0,0,0,0,0,0,0
199,199,0,00000200,00000200,0,48,16,654,0,0,0,0,0,0,0
200,200,0,00000200,00000200,0,48,16,654,0,0,0,0,0,0,0
201,201,0,00000200,00000200,0,48,16,654,0,0,0,0,0,0,0
202,202,0,00000200,00000200,0,48,16,654,0,0,0,0,0,0,0
203,203,0,00000200,00000200,0,48,16,654,0,0,0,0,0,0,0
204,204,0,00000200,00000200,0,48,16,654,0,0,0,0,0,0,0
205,205,0,00000200,00000200,0,48,16,654,0,0,0,0,0,0,0
206,206,0,00000200,00000200,0,48,16,654,0,0,0,0,0,0,0
207,207,0,00000200,00000200,0,48,16,654,0,0,0,0,0,0,0
208,208,0,00000200,00000200,0,48,16,654,0,0,0,0,0,0,0
209,209,0,00000200,00000200,0,48,16,654,0,0,0,0,0,0,0
210,210,0,00000200,00000200,0,48,16,654,0,0,0,0,0,0,0
211,211,0,00000200,00000200,0,48,16,654,0,0,0,0,0,0,0
212,212,0,00000200,00000200,0,48,16,654,0,0,0,0,0,0,0
213,213,0,00000200,00000200,0,48,16,654,0,0,0,0,0,0,0
214,214,0,00000200,00000200,0,48,16,654,0,0,0,0,0,0,0
215,215,0,00000200,00000200,0,48,16,654,0,0,0,0,0,0,0
216,216,0,00000200,00000200,0,48,16,654,0,0,0,0,0,0,0
217,217,0,00000200,00000200,0,48,16,654,0,0,0,0,0,0,0
218,218,0,00000200,00000200,0,48,16,654,0,0,0,0,0,0,0
219,219,0,00000200,00000200,0,48,16,654,0,0,0,0,0,0,0
220,220,0,00000200,00000200,0,48,16,654,0,0,0,0,0,0,0
221,221,0,00000200,00000200,0,48,16,654,0,0,0,0,0,0,0
222,222,0,00000200,00000200,0,48,16,654,0,0,0,0,0,0,0
223,223,0,00000200,00000200,0,48,16,654,0,0,0,0,0,0,0
224,224,0,00000200,00000200,0,48,16,654,0,0,0,0,0,0,0
225,225,0,00000200,00000200,0,48,16,654,0,0,0,0,0,0,0
226,226,0,00000200,00000200,0,48,16,654,0,0,0,0,0,0,0
227,227,0,00000200,00000200,0,48,16,654,0,0,0,0,0,0,0
228,228,0,00000200,00000200,0,48,16,654,0,0,0,0,0,0,0
229,229,0,00000200,00000200,0,48,16,654,0,0,0,0,0,0,0
230,230,0,00000200,00000200,0,48,16,654,0,0,0,0,0,0,0
231,231,0,00000200,00000200,0,48,16,654,0,0,0,0,0,0,0
232,232,0,00000200,00000200,0,48,16,654,0,0,0,0,0,0,0
233,233,0,00000200,00000200,0,48,16,654,0,0,0,0,0,0,0
234,234,0,00000200,00000200,0,48,16,654,0,0,0,0,0,0,0
235,235,0,00000200,00000200,0,48,16,654,0,0,0,0,0,0,0
236,236,0,00000200,00000200,0,48,16,654,0,0,0,0,0,0,0
237,237,0,00000200,00000200,0,48,16,654,0,0,0,0,0,0,0
238,238,0,00000200,00000200,0,48,16,654,0,0,0,0,0,0,0
239,239,0,00000200,00000200,0,0,233,654,0,1,0,0,0,0,0
240,240,0,00000200,00000200,0,1,6,654,0,1,0,0,0,0,0
241,241,0,00000200,00000200,0,2,4,654,0,1,0,0,0,0,0
242,242,0,00000200,00000200,0,3,3,654,0,1,0,0,0,0,0
243,243,0,00000200,00000200,0,4,2,654,0,1,0,0,0,0,0
244,244,0,00000200,00000200,0,5,2,654,0,1,0,0,0,0,0
245,245,0,00000200,00000200,0,6,4,654,0,1,0,0,0,0,0
246,246,0,00000200,00000200,0,7,6,654,0,1,0,0,0,0,0
247,247,0,00000200,00000200,0,8,6,992,1,1,0,0,0,0,0
248,248,0,00000200,00000200,0,9,3,992,0,1,0,0,0,0,0
249,249,0,00000200,00000200,0,10,1,992,0,1,0,0,0,0,0
250,250,0,00000200,00000200,0,11,3,992,0,1,0,0,0,0,0
251,251,0,00000200,00000200,0,12,10,992,0,1,0,0,0,0,0
252,252,0,00000200,00000200,0,13,18,992,0,1,0,0,0,0,0
253,253,0,00000200,00000200,0,14,12,992,0,1,0,0,0,0,0
254,254,0,00000200,00000200,0,15,9,992,0,1,0,0,0,0,0
255,255,0,00000200,00000200,0,16,22,992,0,1,0,0,0,0,0
256,256,1,00000200,00000200,0,17,27,992,0,1,0,0,1,0,0
257,257,0,00000200,00000200,0,18,18,992,0,1,0,0,0,0,0
258,258,0,00000200,00000200,0,19,9,992,0,1,0,0,0,0,0
259,259,0,00000200,00000200,0,20,5,992,0,1,0,0,0,1,1
260,260,0,00000200,00000200,0,21,1,992,0,1,0,0,0,1,1
261,261,0,00000200,00000200,0,22,2,992,0,1,0,0,0,1,1
262,262,0,000001fd,00000200,0,23,2,992,0,1,0,0,0,1,1
263,263,0,000001f8,00000200,0,24,7,992,0,1,0,0,0,1,1
264,264,0,000001f0,00000200,0,25,5,992,0,1,0,0,0,1,1
265,265,0,000001e9,00000200,0,26,4,992,0,1,0,0,0,1,1
266,266,0,000001e4,00000200,0,27,5,992,0,1,0,0,0,1,1
267,267,0,000001e6,00000200,0,28,1,992,0,1,0,0,0,1,1
268,268,0,000001ee,00000200,0,29,6,992,0,1,0,0,0,1,1
269,269,0,000001fa,00000200,0,30,3,992,0,1,0,0,0,1,1
270,270,0,00000206,00000200,0,31,1,992,0,1,0,0,0,1,1
271,271,0,0000020d,00000200,0,32,3,992,0,1,0,0,0,1,1
272,272,0,0000020e,00000200,0,33,1,992,0,1,0,0,0,1,1
273,273,0,00000208,00000200,0,34,3,992,0,1,0,0,0,1,1
274,274,0,000001fd,00000200,0,35,5,992,0,1,0,0,0,1,1
275,275,0,000001f1,00000200,0,36,1,992,0,1,0,0,0,1,1
276,276,0,000001e8,00000200,0,37,5,992,0,1,0,0,0,1,1
277,277,0,000001e6,00000200,0,38,4,992,0,1,0,0,0,1,1
278,278,0,000001e9,00000200,0,39,5,992,0,1,0,0,0,1,1
279,279,0,000001f1,00000200,0,40,7,992,0,1,0,0,0,1,1
280,280,0,000001fc,00000200,0,41,2,992,0,1,0,0,0,1,1
281,281,0,00000205,00000200,0,42,3,992,0,1,0,0,0,1,1
282,282,0,0000020c,00000200,0,43,1,992,0,1,0,0,0,1,1
283,283,0,0000020c,00000200,0,44,5,992,0,1,0,0,0,1,1
284,284,0,00000208,00000200,0,45,9,992,0,1,0,0,0,1,1
285,285,0,000001ff,00000200,0,46,18,992,0,1,0,0,0,1,1
286,286,0,000001f7,00000200,0,47,28,992,0,1,0,0,0,1,1
287,287,0,000001f1,00000200,0,48,22,992,0,1,0,0,0,1,1
288,288,0,000001ed,00000200,0,49,8,992,0,1,0,0,0,1,1
289,289,0,000001ee,00000200,0,50,13,992,0,1,0,0,0,1,1
290,290,0,000001f1,00000200,0,51,18,992,0,1,0,0,0,1,1
291,291,0,000001f7,00000200,0,52,11,992,0,1,0,0,0,1,1
292,292,0,000001fb,00000200,0,53,3,992,0,1,0,0,0,1,1
293,293,0,000001fc,00000200,0,54,1,992,0,1,0,0,0,1,1
294,294,0,000001fa,00000200,0,55,4,992,0,1,0,0,0,1,1
295,295,0,000001f6,00000200,0,56,6,992,0,1,0,0,0,1,1
296,296,0,000001f3,00000200,0,57,6,992,0,1,0,0,0,1,1
297,297,0,000001f3,00000200,0,58,4,992,0,1,0,0,0,1,1
298,298,0,000001f5,00000200,0,59,3,992,0,1,0,0,0,1,1
299,299,0,000001fa,00000200,0,60,2,992,0,1,0,0,0,1,1
300,300,0,00000200,00000200,0,61,4,992,0,1,0,0,0,1,1
301,301,0,00000204,00000200,0,62,5,992,0,1,0,0,0,1,1
302,302,0,00000206,00000200,0,63,7,992,0,1,0,0,0,1,1
303,303,0,00000202,00000200,0,48,22,992,0,0,0,0,0,1,1
304,304,0,000001fb,00000200,0,48,22,992,0,0,0,0,0,1,1
305,305,0,000001f3,00000200,0,48,22,992,0,0,0,0,0,1,1
306,306,0,000001ed,00000200,0,48,22,992,0,0,0,0,0,1,1
307,307,0,000001eb,00000200,0,48,22,992,0,0,0,0,0,1,1
308,308,0,000001ed,00000200,0,48,22,992,0,0,0,0,0,1,1
309,309,0,000001f3,00000200,0,48,22,992,0,0,0,0,0,1,1
310,310,0,000001f9,00000200,0,48,22,992,0,0,0,0,0,1,1
311,311,0,000001ff,00000200,0,48,22,992,0,0,0,0,0,1,1
312,312,0,00000203,00000200,0,48,22,992,0,0,0,0,0,1,1
313,313,0,00000205,00000200,0,48,22,992,0,0,0,0,0,1,1
314,314,0,00000204,00000200,0,48,22,992,0,0,0,0,0,1,1
315,315,0,00000200,00000200,0,48,22,992,0,0,0,0,0,1,1
316,316,0,000001fc,00000200,0,48,22,992,0,0,0,0,0,1,1
317,317,0,000001f9,00000200,0,48,22,992,0,0,0,0,0,1,1
318,318,0,000001f6,00000200,0,48,22,992,0,0,0,0,0,1,1
319,319,0,000001f5,00000200,0,48,22,992,0,0,0,0,0,1,1
320,320,0,000001f3,00000200,0,48,22,992,0,0,0,0,0,1,1
321,321,0,000001f1,00000200,0,48,22,992,0,0,0,0,0,1,1
322,322,0,000001ef,00000200,0,48,22,992,0,0,0,0,0,1,1
323,323,0,000001ec,00000200,0,48,22,992,0,0,0,0,0,1,1
324,324,0,000001eb,00000200,0,48,22,992,0,0,0,0,0,1,1
325,325,0,000001ea,00000200,0,48,22,992,0,0,0,0,0,1,1
326,326,0,000001ed,00000200,0,48,22,992,0,0,0,0,0,1,1
327,327,0,000001f4,00000200,0,48,22,992,0,0,0,0,0,1,1
328,328,0,000001fe,00000200,0,48,22,992,0,0,0,0,0,1,1
329,329,0,00000209,00000200,0,48,22,992,0,0,0,0,0,1,1
330,330,0,00000212,00000200,0,48,22,992,0,0,0,0,0,1,1
331,331,0,00000219,00000200,0,48,22,992,0,0,0,0,0,1,1
332,332,0,0000021b,00000200,0,48,22,992,0,0,0,0,0,1,1
333,333,0,00000216,00000200,0,48,22,992,0,0,0,0,0,1,1
334,334,0,00000209,00000200,0,48,22,992,0,0,0,0,0,1,1
335,335,0,000001f9,00000200,0,48,22,992,0,0,0,0,0,1,1
336,336,0,000001e9,00000200,0,48,22,992,0,0,0,0,0,1,1
337,337,0,000001dc,00000200,0,48,22,992,0,0,0,0,0,1,1
338,338,0,000001d5,00000200,0,48,22,992,0,0,0,0,0,1,1
339,339,0,000001d5,00000200,0,48,22,992,0,0,0,0,0,1,1
340,340,0,000001dc,00000200,0,48,22,992,0,0,0,0,0,1,1
341,341,0,000001e8,00000200,0,48,22,992,0,0,0,0,0,1,1
342,342,0,000001f4,00000200,0,48,22,992,0,0,0,0,0,1,1
343,343,0,000001fe,00000200,0,48,22,992,0,0,0,0,0,1,1
344,344,0,00000204,00000200,0,48,22,992,0,0,0,0,0,1,1
345,345,0,00000207,00000200,0,48,22,992,0,0,0,0,0,1,1
346,346,0,00000209,00000200,0,48,22,992,0,0,0,0,0,1,1
347,347,0,0000020a,00000200,0,48,22,992,0,0,0,0,0,1,1
348,348,0,0000020c,00000200,0,48,22,992,0,0,0,0,0,1,1
349,349,0,0000020c,00000200,0,48,22,992,0,0,0,0,0,1,1
350,350,0,0000020c,00000200,0,48,22,992,0,0,0,0,0,1,1
351,351,0,00000209,00000200,0,48,22,992,0,0,0,0,0,1,1
352,352,0,00000203,00000200,0,48,22,992,0,0,0,0,0,1,1
353,353,0,000001fa,00000200,0,48,22,992,0,0,0,0,0,1,1
354,354,0,000001ef,00000200,0,48,22,992,0,0,0,0,0,1,1
355,355,0,000001e5,00000200,0,48,22,992,0,0,0,0,0,1,1
356,356,0,000001de,00000200,0,48,22,992,0,0,0,0,0,1,1
357,357,0,000001dd,00000200,0,48,22,992,0,0,0,0,0,1,1
358,358,0,000001e2,00000200,0,48,22,992,0,0,0,0,0,1,1
359,359,0,000001ec,00000200,0,48,22,992,0,0,0,0,0,1,1
